
T1E8C 000:353 SEGGER J-Link V5.12e Log File (0000ms, 0314ms total)
T1E8C 000:353 DLL Compiled: Apr 29 2016 15:03:58 (0000ms, 0314ms total)
T1E8C 000:353 Logging started @ 2017-08-21 17:01 (0000ms, 0314ms total)
T1E8C 000:353 JLINK_SetWarnOutHandler(...) (0000ms, 0314ms total)
T1E8C 000:353 JLINK_OpenEx(...)
Firmware: J-Link V9 compiled Sep  1 2016 18:29:50
Hardware: V9.20
Feature(s): GDB, RDI, FlashBP, FlashDL, JFlash  returns O.K. (0308ms, 0622ms total)
T1E8C 000:661 JLINK_SetErrorOutHandler(...) (0000ms, 0622ms total)
T1E8C 000:661 JLINK_ExecCommand("ProjectFile = "C:\Keil_v5\ARM\examples\Atmel\SAME70_Xplained\examples\mcan\build\mdk\JLinkSettings.ini"", ...)  returns 0x00 (0000ms, 0622ms total)
T1E8C 000:661 JLINK_ExecCommand("Device = ATSAME70Q21", ...)Device "ATSAME70Q21" selected.  returns 0x00 (0001ms, 0623ms total)
T1E8C 000:662 JLINK_ExecCommand("DisableConnectionTimeout", ...)  returns 0x01 (0000ms, 0623ms total)
T1E8C 000:662 JLINK_GetHardwareVersion()  returns 0x16760 (0000ms, 0623ms total)
T1E8C 000:662 JLINK_GetDLLVersion()  returns 51205 (0000ms, 0623ms total)
T1E8C 000:662 JLINK_GetFirmwareString(...) (0000ms, 0623ms total)
T1E8C 000:662 JLINK_GetDLLVersion()  returns 51205 (0000ms, 0623ms total)
T1E8C 000:662 JLINK_GetCompileDateTime() (0000ms, 0623ms total)
T1E8C 000:662 JLINK_GetFirmwareString(...) (0000ms, 0623ms total)
T1E8C 000:662 JLINK_GetHardwareVersion()  returns 0x16760 (0000ms, 0623ms total)
T1E8C 000:662 JLINK_TIF_Select(JLINKARM_TIF_SWD)  returns 0x00 (0009ms, 0632ms total)
T1E8C 000:671 JLINK_SetSpeed(5000) (0003ms, 0635ms total)
T1E8C 000:674 JLINK_GetId() >0x108 TIF>Found SWD-DP with ID 0x0BD11477 >0x0D TIF> >0x28 TIF> >0x0D TIF> >0x28 TIF> >0x0D TIF> >0x28 TIF> >0x0D TIF> >0x28 TIF> >0x0D TIF> >0x21 TIF> >0x0D TIF> >0x28 TIF> >0x0D TIF> >0x28 TIF> >0x0D TIF> >0x21 TIF> >0x0D TIF> >0x21 TIF> >0x0D TIF> >0x21 TIF> >0x0D TIF> >0x28 TIF> >0x0D TIF> >0x28 TIF> >0x0D TIF> >0x28 TIF> >0x0D TIF> >0x21 TIF> >0x0D TIF> >0x21 TIF> >0x0D TIF> >0x28 TIF> >0x0D TIF> >0x21 TIF> >0x0D TIF> >0x21 TIF>Found Cortex-M7 r0p1, Little endian.
 -- CPU_ReadMem(4 bytes @ 0xE000EDF0) -- CPU_ReadMem(4 bytes @ 0xE0002000)FPUnit: 8 code (BP) slots and 0 literal slots -- CPU_ReadMem(4 bytes @ 0xE000EDFC) -- CPU_ReadMem(4 bytes @ 0xE0001000) -- CPU_WriteMem(4 bytes @ 0xE0001000) -- CPU_ReadMem(4 bytes @ 0xE000ED88) -- CPU_WriteMem(4 bytes @ 0xE000ED88) -- CPU_ReadMem(4 bytes @ 0xE000ED88) -- CPU_WriteMem(4 bytes @ 0xE000ED88)CoreSight components:ROMTbl 0 @ E00FD000 -- CPU_ReadMem(16 bytes @ 0xE00FD000) -- CPU_ReadMem(16 bytes @ 0xE00FEFF0)
 -- CPU_ReadMem(16 bytes @ 0xE00FEFE0)ROMTbl 0 [0]: 00001000, CID: B105100D, PID: 000BB4C8 ROM TableROMTbl 1 @ E00FE000 -- CPU_ReadMem(16 bytes @ 0xE00FE000) -- CPU_ReadMem(16 bytes @ 0xE00FFFF0) -- CPU_ReadMem(16 bytes @ 0xE00FFFE0)ROMTbl 1 [0]: 00001000, CID: B105100D, PID: 000BB4C7 ROM TableROMTbl 2 @ E00FF000 -- CPU_ReadMem(16 bytes @ 0xE00FF000) -- CPU_ReadMem(16 bytes @ 0xE000EFF0) -- CPU_ReadMem(16 bytes @ 0xE000EFE0)ROMTbl 2 [0]: FFF0F000, CID: B105E00D, PID: 000BB00C SCS
 -- CPU_ReadMem(16 bytes @ 0xE0001FF0) -- CPU_ReadMem(16 bytes @ 0xE0001FE0)ROMTbl 2 [1]: FFF02000, CID: B105E00D, PID: 000BB002 DWT -- CPU_ReadMem(16 bytes @ 0xE0002FF0) -- CPU_ReadMem(16 bytes @ 0xE0002FE0)ROMTbl 2 [2]: FFF03000, CID: B105E00D, PID: 000BB00E FPB -- CPU_ReadMem(16 bytes @ 0xE0000FF0) -- CPU_ReadMem(16 bytes @ 0xE0000FE0)ROMTbl 2 [3]: FFF01000, CID: B105E00D, PID: 000BB001 ITM -- CPU_ReadMem(16 bytes @ 0xE00FF010) -- CPU_ReadMem(16 bytes @ 0xE0041FF0)
 -- CPU_ReadMem(16 bytes @ 0xE0041FE0)ROMTbl 1 [1]: FFF43000, CID: B105900D, PID: 000BB975 ETM-M7 -- CPU_ReadMem(16 bytes @ 0xE00FE010) -- CPU_ReadMem(16 bytes @ 0xE0040FF0) -- CPU_ReadMem(16 bytes @ 0xE0040FE0)ROMTbl 0 [1]: FFF43000, CID: B105900D, PID: 000BB9A9 TPIU-M7 -- CPU_ReadMem(16 bytes @ 0xE00FD010) -- CPU_ReadMem(4 bytes @ 0xE000ED78) -- CPU_WriteMem(4 bytes @ 0xE000ED84) -- CPU_ReadMem(4 bytes @ 0xE000ED80)I-Cache L1: 16 KB, 256 Sets, 32 Bytes/Line, 2-Way -- CPU_WriteMem(4 bytes @ 0xE000ED84)
 -- CPU_ReadMem(4 bytes @ 0xE000ED80)D-Cache L1: 16 KB, 128 Sets, 32 Bytes/Line, 4-Way >0x0D TIF> >0x21 TIF>  returns 0x0BD11477 (0205ms, 0840ms total)
T1E8C 000:879 JLINK_GetDLLVersion()  returns 51205 (0000ms, 0840ms total)
T1E8C 000:879 JLINK_CORE_GetFound()  returns 0xE0100FF (0000ms, 0840ms total)
T1E8C 000:879 JLINK_GetDebugInfo(0x100) -- Value=0xE00FD000  returns 0x00 (0000ms, 0840ms total)
T1E8C 000:879 JLINK_GetDebugInfo(0x100) -- Value=0xE00FD000  returns 0x00 (0000ms, 0840ms total)
T1E8C 000:879 JLINK_GetDebugInfo(0x101) -- Value=0xE0041000  returns 0x00 (0000ms, 0840ms total)
T1E8C 000:879 JLINK_GetDebugInfo(0x102) -- Value=0x00000000  returns 0x00 (0000ms, 0840ms total)
T1E8C 000:879 JLINK_GetDebugInfo(0x103) -- Value=0xE0040000  returns 0x00 (0000ms, 0840ms total)
T1E8C 000:879 JLINK_GetDebugInfo(0x104) -- Value=0xE0000000  returns 0x00 (0000ms, 0840ms total)
T1E8C 000:879 JLINK_GetDebugInfo(0x105) -- Value=0xE0001000  returns 0x00 (0000ms, 0840ms total)
T1E8C 000:879 JLINK_GetDebugInfo(0x106) -- Value=0xE0002000  returns 0x00 (0000ms, 0840ms total)
T1E8C 000:879 JLINK_GetDebugInfo(0x107) -- Value=0xE000E000  returns 0x00 (0000ms, 0840ms total)
T1E8C 000:879 JLINK_GetDebugInfo(0x10C) -- Value=0xE000EDF0  returns 0x00 (0000ms, 0840ms total)
T1E8C 000:879 JLINK_ReadMemU32(0xE000ED00, 0x0001 Items, ...) -- CPU is running -- CPU_ReadMem(4 bytes @ 0xE000ED00) - Data: 71 C2 0F 41  returns 0x01 (0003ms, 0843ms total)
T1E8C 000:882 JLINK_ReadMemU32(0xE000EDF0, 0x0001 Items, ...) -- CPU is running -- CPU_ReadMem(4 bytes @ 0xE000EDF0) - Data: 01 00 01 01  returns 0x01 (0003ms, 0846ms total)
T1E8C 000:885 JLINK_SetResetType(JLINKARM_RESET_TYPE_NORMAL)  returns JLINKARM_RESET_TYPE_NORMAL (0000ms, 0846ms total)
T1E8C 000:885 JLINK_Reset() -- CPU is running -- CPU_WriteMem(4 bytes @ 0xE000EDF0) -- CPU is running -- CPU_WriteMem(4 bytes @ 0xE000EDFC) >0x35 TIF> -- CPU is running -- CPU_WriteMem(4 bytes @ 0xE000ED0C) -- CPU is running -- CPU_ReadMem(4 bytes @ 0xE000EDF0) -- CPU is running -- CPU_ReadMem(4 bytes @ 0xE000EDF0) -- CPU is running -- CPU_WriteMem(4 bytes @ 0xE000EDF0) -- CPU is running -- CPU_WriteMem(4 bytes @ 0xE000EDFC) -- CPU is running -- CPU_ReadMem(4 bytes @ 0xE000EDF0)
 -- CPU_WriteMem(4 bytes @ 0xE0002000) -- CPU_ReadMem(4 bytes @ 0xE000EDFC) -- CPU_ReadMem(4 bytes @ 0xE0001000) (0049ms, 0895ms total)
T1E8C 000:934 JLINK_ReadReg(R15 (PC))  returns 0x00401480 (0000ms, 0895ms total)
T1E8C 000:934 JLINK_ReadReg(XPSR)  returns 0x01000000 (0000ms, 0895ms total)
T1E8C 000:934 JLINK_Halt()  returns 0x00 (0000ms, 0895ms total)
T1E8C 000:934 JLINK_IsHalted()  returns TRUE (0000ms, 0895ms total)
T1E8C 000:934 JLINK_ReadMemU32(0xE000EDF0, 0x0001 Items, ...) -- CPU_ReadMem(4 bytes @ 0xE000EDF0) - Data: 03 00 03 00  returns 0x01 (0003ms, 0898ms total)
T1E8C 000:937 JLINK_WriteU32(0xE000EDF0, 0xA05F0003) -- CPU_WriteMem(4 bytes @ 0xE000EDF0)  returns 0x00 (0003ms, 0901ms total)
T1E8C 000:940 JLINK_WriteU32(0xE000EDFC, 0x01000000) -- CPU_WriteMem(4 bytes @ 0xE000EDFC)  returns 0x00 (0004ms, 0905ms total)
T1E8C 000:944 JLINK_GetHWStatus(...)  returns 0x00 (0003ms, 0908ms total)
T1E8C 000:947 JLINK_GetNumBPUnits(Type = 0xFFFFFF00)  returns 0x08 (0000ms, 0908ms total)
T1E8C 000:947 JLINK_GetNumBPUnits(Type = 0xF0)  returns 0x2000 (0000ms, 0908ms total)
T1E8C 000:947 JLINK_GetNumWPUnits()  returns 0x04 (0000ms, 0908ms total)
T1E8C 000:947 JLINK_GetSpeed()  returns 0xFA0 (0000ms, 0908ms total)
T1E8C 000:947 JLINK_ReadMemU32(0xE000E004, 0x0001 Items, ...) -- CPU_ReadMem(4 bytes @ 0xE000E004) - Data: 02 00 00 00  returns 0x01 (0004ms, 0912ms total)
T1E8C 000:951 JLINK_ReadMemU32(0xE000E004, 0x0001 Items, ...) -- CPU_ReadMem(4 bytes @ 0xE000E004) - Data: 02 00 00 00  returns 0x01 (0003ms, 0915ms total)
T1E8C 000:954 JLINK_WriteMem(0xE0001000, 0x001C Bytes, ...) - Data: 01 00 00 00 00 00 00 00 00 00 00 00 00 00 00 00 ... -- CPU_WriteMem(28 bytes @ 0xE0001000)  returns 0x1C (0004ms, 0919ms total)
T1E8C 000:958 JLINK_ReadMem (0xE0001000, 0x001C Bytes, ...) -- CPU_ReadMem(28 bytes @ 0xE0001000) - Data: 01 00 00 40 00 00 00 00 00 00 00 00 00 00 00 00 ...  returns 0x00 (0003ms, 0922ms total)
T1E8C 000:961 JLINK_ReadReg(R15 (PC))  returns 0x00401480 (0000ms, 0922ms total)
T1E8C 000:961 JLINK_ReadReg(XPSR)  returns 0x01000000 (0000ms, 0922ms total)
T1E8C 001:032 JLINK_SetResetType(JLINKARM_RESET_TYPE_NORMAL)  returns JLINKARM_RESET_TYPE_NORMAL (0000ms, 0922ms total)
T1E8C 001:032 JLINK_Reset() -- CPU_WriteMem(4 bytes @ 0xE000EDF0) -- CPU_WriteMem(4 bytes @ 0xE000EDFC) >0x35 TIF> -- CPU_WriteMem(4 bytes @ 0xE000ED0C) -- CPU_ReadMem(4 bytes @ 0xE000EDF0) -- CPU_ReadMem(4 bytes @ 0xE000EDF0) -- CPU_WriteMem(4 bytes @ 0xE000EDF0) -- CPU_WriteMem(4 bytes @ 0xE000EDFC) -- CPU is running -- CPU_ReadMem(4 bytes @ 0xE000EDF0) -- CPU_WriteMem(4 bytes @ 0xE0002000) -- CPU_ReadMem(4 bytes @ 0xE000EDFC) -- CPU_ReadMem(4 bytes @ 0xE0001000) (0052ms, 0974ms total)
T1E8C 001:084 JLINK_ReadReg(R15 (PC))  returns 0x00401480 (0000ms, 0974ms total)
T1E8C 001:084 JLINK_ReadReg(XPSR)  returns 0x01000000 (0000ms, 0974ms total)
T1E8C 002:145 JLINK_ReadMem (0x00000000, 0x0004 Bytes, ...) -- CPU_ReadMem(4 bytes @ 0x00000000) - Data: 08 36 40 20  returns 0x00 (0004ms, 0978ms total)
T1E8C 002:153 JLINK_ReadMemU32(0xE0001004, 0x0001 Items, ...) -- CPU_ReadMem(4 bytes @ 0xE0001004) - Data: 99 07 00 00  returns 0x01 (0002ms, 0980ms total)
T1B5C 005:879 JLINK_SetBPEx(Addr = 0x0040096A, Type = 0xFFFFFFF2)  returns 0x00000001 (0000ms, 0980ms total)
T1B5C 005:879 JLINK_Go() -- CPU_WriteMem(4 bytes @ 0xE0002000) -- CPU_ReadMem(4 bytes @ 0xE0001000) -- CPU_WriteMem(4 bytes @ 0xE0002008) -- CPU_WriteMem(4 bytes @ 0xE000200C) -- CPU_WriteMem(4 bytes @ 0xE0002010) -- CPU_WriteMem(4 bytes @ 0xE0002014) -- CPU_WriteMem(4 bytes @ 0xE0002018) -- CPU_WriteMem(4 bytes @ 0xE000201C) -- CPU_WriteMem(4 bytes @ 0xE0002020) -- CPU_WriteMem(4 bytes @ 0xE0002024) -- CPU_WriteMem(4 bytes @ 0xE0001004) (0028ms, 1008ms total)
T1B5C 006:007 JLINK_IsHalted()  returns FALSE (0003ms, 1011ms total)
T1B5C 006:110 JLINK_IsHalted()  returns FALSE (0003ms, 1011ms total)
T1B5C 006:213 JLINK_IsHalted()  returns TRUE (0005ms, 1013ms total)
T1B5C 006:218 JLINK_Halt()  returns 0x00 (0000ms, 1008ms total)
T1B5C 006:218 JLINK_IsHalted()  returns TRUE (0000ms, 1008ms total)
T1B5C 006:218 JLINK_IsHalted()  returns TRUE (0000ms, 1008ms total)
T1B5C 006:218 JLINK_IsHalted()  returns TRUE (0000ms, 1008ms total)
T1B5C 006:218 JLINK_ReadReg(R15 (PC))  returns 0x0040096A (0000ms, 1008ms total)
T1B5C 006:218 JLINK_ReadReg(XPSR)  returns 0x61000036 (0000ms, 1008ms total)
T1B5C 006:218 JLINK_ClrBPEx(BPHandle = 0x00000001)  returns 0x00 (0000ms, 1008ms total)
T1B5C 006:218 JLINK_ReadMemU32(0xE000ED30, 0x0001 Items, ...) -- CPU_ReadMem(4 bytes @ 0xE000ED30) - Data: 02 00 00 00  returns 0x01 (0003ms, 1011ms total)
T1B5C 006:221 JLINK_ReadMemU32(0xE0001028, 0x0001 Items, ...) -- CPU_ReadMem(4 bytes @ 0xE0001028) - Data: 00 00 00 00  returns 0x01 (0002ms, 1013ms total)
T1B5C 006:223 JLINK_ReadMemU32(0xE0001038, 0x0001 Items, ...) -- CPU_ReadMem(4 bytes @ 0xE0001038) - Data: 00 02 00 00  returns 0x01 (0003ms, 1016ms total)
T1B5C 006:226 JLINK_ReadMemU32(0xE0001048, 0x0001 Items, ...) -- CPU_ReadMem(4 bytes @ 0xE0001048) - Data: 00 00 00 00  returns 0x01 (0002ms, 1018ms total)
T1B5C 006:228 JLINK_ReadMemU32(0xE0001058, 0x0001 Items, ...) -- CPU_ReadMem(4 bytes @ 0xE0001058) - Data: 00 00 00 00  returns 0x01 (0003ms, 1021ms total)
T1B5C 006:231 JLINK_ReadReg(R0)  returns 0xFFFFFFFF (0000ms, 1021ms total)
T1B5C 006:231 JLINK_ReadReg(R1)  returns 0x20400050 (0000ms, 1021ms total)
T1B5C 006:231 JLINK_ReadReg(R2)  returns 0x004009B8 (0000ms, 1021ms total)
T1B5C 006:231 JLINK_ReadReg(R3)  returns 0x00000000 (0000ms, 1021ms total)
T1B5C 006:231 JLINK_ReadReg(R4)  returns 0x00000000 (0000ms, 1021ms total)
T1B5C 006:231 JLINK_ReadReg(R5)  returns 0x00000001 (0000ms, 1021ms total)
T1B5C 006:231 JLINK_ReadReg(R6)  returns 0x00000001 (0000ms, 1021ms total)
T1B5C 006:231 JLINK_ReadReg(R7)  returns 0x0040232F (0000ms, 1021ms total)
T1B5C 006:231 JLINK_ReadReg(R8)  returns 0x00000000 (0000ms, 1021ms total)
T1B5C 006:231 JLINK_ReadReg(R9)  returns 0x00000000 (0000ms, 1021ms total)
T1B5C 006:231 JLINK_ReadReg(R10)  returns 0x00402350 (0000ms, 1021ms total)
T1B5C 006:231 JLINK_ReadReg(R11)  returns 0x00402350 (0000ms, 1021ms total)
T1B5C 006:231 JLINK_ReadReg(R12)  returns 0x00000000 (0000ms, 1021ms total)
T1B5C 006:231 JLINK_ReadReg(R13 (SP))  returns 0x204035A8 (0000ms, 1021ms total)
T1B5C 006:231 JLINK_ReadReg(R14)  returns 0x004005C5 (0000ms, 1021ms total)
T1B5C 006:231 JLINK_ReadReg(R15 (PC))  returns 0x0040096A (0000ms, 1021ms total)
T1B5C 006:231 JLINK_ReadReg(XPSR)  returns 0x61000036 (0000ms, 1021ms total)
T1B5C 006:231 JLINK_ReadReg(MSP)  returns 0x204035A8 (0000ms, 1021ms total)
T1B5C 006:231 JLINK_ReadReg(PSP)  returns 0x00000000 (0000ms, 1021ms total)
T1B5C 006:231 JLINK_ReadReg(CFBP)  returns 0x00000000 (0000ms, 1021ms total)
T1B5C 006:231 JLINK_ReadReg(FPSCR)  returns 0x00000000 (0009ms, 1030ms total)
T1B5C 006:240 JLINK_ReadReg(FPS0)  returns 0x00000000 (0000ms, 1030ms total)
T1B5C 006:240 JLINK_ReadReg(FPS1)  returns 0x00000000 (0000ms, 1030ms total)
T1B5C 006:240 JLINK_ReadReg(FPS2)  returns 0x00000000 (0000ms, 1030ms total)
T1B5C 006:240 JLINK_ReadReg(FPS3)  returns 0x00000000 (0000ms, 1030ms total)
T1B5C 006:240 JLINK_ReadReg(FPS4)  returns 0x00000000 (0000ms, 1030ms total)
T1B5C 006:240 JLINK_ReadReg(FPS5)  returns 0x00000000 (0000ms, 1030ms total)
T1B5C 006:240 JLINK_ReadReg(FPS6)  returns 0x00000000 (0000ms, 1030ms total)
T1B5C 006:240 JLINK_ReadReg(FPS7)  returns 0x00000000 (0000ms, 1030ms total)
T1B5C 006:240 JLINK_ReadReg(FPS8)  returns 0x00000000 (0000ms, 1030ms total)
T1B5C 006:240 JLINK_ReadReg(FPS9)  returns 0x00000000 (0000ms, 1030ms total)
T1B5C 006:240 JLINK_ReadReg(FPS10)  returns 0x00000000 (0000ms, 1030ms total)
T1B5C 006:240 JLINK_ReadReg(FPS11)  returns 0x00000000 (0000ms, 1030ms total)
T1B5C 006:240 JLINK_ReadReg(FPS12)  returns 0x00000000 (0000ms, 1030ms total)
T1B5C 006:240 JLINK_ReadReg(FPS13)  returns 0x00000000 (0000ms, 1030ms total)
T1B5C 006:240 JLINK_ReadReg(FPS14)  returns 0x00000000 (0000ms, 1030ms total)
T1B5C 006:240 JLINK_ReadReg(FPS15)  returns 0xFFFFFFFF (0000ms, 1030ms total)
T1B5C 006:240 JLINK_ReadReg(FPS16)  returns 0x00000000 (0000ms, 1030ms total)
T1B5C 006:240 JLINK_ReadReg(FPS17)  returns 0x00000000 (0000ms, 1030ms total)
T1B5C 006:240 JLINK_ReadReg(FPS18)  returns 0x00000000 (0001ms, 1031ms total)
T1B5C 006:241 JLINK_ReadReg(FPS19)  returns 0x00000000 (0000ms, 1031ms total)
T1B5C 006:241 JLINK_ReadReg(FPS20)  returns 0x00000000 (0000ms, 1031ms total)
T1B5C 006:241 JLINK_ReadReg(FPS21)  returns 0x00000000 (0000ms, 1031ms total)
T1B5C 006:241 JLINK_ReadReg(FPS22)  returns 0x00000000 (0000ms, 1031ms total)
T1B5C 006:241 JLINK_ReadReg(FPS23)  returns 0x00000000 (0000ms, 1031ms total)
T1B5C 006:241 JLINK_ReadReg(FPS24)  returns 0x00000000 (0000ms, 1031ms total)
T1B5C 006:241 JLINK_ReadReg(FPS25)  returns 0x00000000 (0000ms, 1031ms total)
T1B5C 006:241 JLINK_ReadReg(FPS26)  returns 0x00000000 (0000ms, 1031ms total)
T1B5C 006:241 JLINK_ReadReg(FPS27)  returns 0x00000000 (0000ms, 1031ms total)
T1B5C 006:241 JLINK_ReadReg(FPS28)  returns 0x00000000 (0000ms, 1031ms total)
T1B5C 006:241 JLINK_ReadReg(FPS29)  returns 0x00000000 (0000ms, 1031ms total)
T1B5C 006:241 JLINK_ReadReg(FPS30)  returns 0x00000000 (0000ms, 1031ms total)
T1B5C 006:241 JLINK_ReadReg(FPS31)  returns 0xFFFFFFFF (0000ms, 1031ms total)
T1E8C 006:241 JLINK_ReadMem (0x204035AC, 0x0004 Bytes, ...) -- CPU_ReadMem(64 bytes @ 0x20403580) -- Updating C cache (64 bytes @ 0x20403580) -- Read from C cache (4 bytes @ 0x204035AC) - Data: F9 FF FF FF  returns 0x00 (0003ms, 1034ms total)
T1E8C 006:244 JLINK_ReadMem (0x204035C8, 0x0004 Bytes, ...) -- CPU_ReadMem(64 bytes @ 0x204035C0) -- Updating C cache (64 bytes @ 0x204035C0) -- Read from C cache (4 bytes @ 0x204035C8) - Data: 7A 0C 40 00  returns 0x00 (0003ms, 1037ms total)
T1E8C 006:247 JLINK_ReadMem (0x204035CC, 0x0004 Bytes, ...) -- Read from C cache (4 bytes @ 0x204035CC) - Data: 00 00 00 61  returns 0x00 (0000ms, 1037ms total)
T1E8C 006:247 JLINK_ReadMem (0x204035C4, 0x0004 Bytes, ...) -- Read from C cache (4 bytes @ 0x204035C4) - Data: BD 1F 40 00  returns 0x00 (0000ms, 1037ms total)
T1E8C 006:247 JLINK_ReadMem (0xE000ED28, 0x0004 Bytes, ...) -- CPU_ReadMem(4 bytes @ 0xE000ED28) - Data: 00 00 00 00  returns 0x00 (0003ms, 1040ms total)
T1E8C 006:250 JLINK_ReadMem (0x204035F4, 0x0004 Bytes, ...) -- Read from C cache (4 bytes @ 0x204035F4) - Data: BD 1F 40 00  returns 0x00 (0000ms, 1040ms total)
T1E8C 006:250 JLINK_ReadMem (0x204035D4, 0x0004 Bytes, ...) -- Read from C cache (4 bytes @ 0x204035D4) - Data: 00 00 00 00  returns 0x00 (0000ms, 1040ms total)
T1E8C 006:250 JLINK_ReadMem (0x204035D8, 0x0004 Bytes, ...) -- Read from C cache (4 bytes @ 0x204035D8) - Data: 01 00 00 00  returns 0x00 (0000ms, 1040ms total)
T1E8C 006:250 JLINK_ReadMem (0x204035DC, 0x0004 Bytes, ...) -- Read from C cache (4 bytes @ 0x204035DC) - Data: 01 00 00 00  returns 0x00 (0000ms, 1040ms total)
T1E8C 006:250 JLINK_ReadMem (0x204035E0, 0x0004 Bytes, ...) -- Read from C cache (4 bytes @ 0x204035E0) - Data: 2F 23 40 00  returns 0x00 (0000ms, 1040ms total)
T1E8C 006:250 JLINK_ReadMem (0x204035E4, 0x0004 Bytes, ...) -- Read from C cache (4 bytes @ 0x204035E4) - Data: 00 00 00 00  returns 0x00 (0000ms, 1040ms total)
T1E8C 006:250 JLINK_ReadMem (0x204035E8, 0x0004 Bytes, ...) -- Read from C cache (4 bytes @ 0x204035E8) - Data: 00 00 00 00  returns 0x00 (0000ms, 1040ms total)
T1E8C 006:250 JLINK_ReadMem (0x204035EC, 0x0004 Bytes, ...) -- Read from C cache (4 bytes @ 0x204035EC) - Data: 50 23 40 00  returns 0x00 (0000ms, 1040ms total)
T1E8C 006:250 JLINK_ReadMem (0x204035F0, 0x0004 Bytes, ...) -- Read from C cache (4 bytes @ 0x204035F0) - Data: 50 23 40 00  returns 0x00 (0000ms, 1040ms total)
T1E8C 006:250 JLINK_ReadMem (0x20403604, 0x0004 Bytes, ...) -- CPU_ReadMem(64 bytes @ 0x20403600) -- Updating C cache (64 bytes @ 0x20403600) -- Read from C cache (4 bytes @ 0x20403604) - Data: D9 01 40 00  returns 0x00 (0003ms, 1043ms total)
T1E8C 006:261 JLINK_ReadMemU32(0xE0001004, 0x0001 Items, ...) -- CPU_ReadMem(4 bytes @ 0xE0001004) - Data: 61 69 D5 04  returns 0x01 (0002ms, 1045ms total)
T1E8C 006:264 JLINK_ReadMem (0x0040096A, 0x0002 Bytes, ...) -- CPU_ReadMem(64 bytes @ 0x00400940) -- Updating C cache (64 bytes @ 0x00400940) -- Read from C cache (2 bytes @ 0x0040096A) - Data: 10 48  returns 0x00 (0003ms, 1048ms total)
T1E8C 006:267 JLINK_ReadMem (0x0040096C, 0x003C Bytes, ...) -- CPU_ReadMem(64 bytes @ 0x00400980) -- Updating C cache (64 bytes @ 0x00400980) -- Read from C cache (60 bytes @ 0x0040096C) - Data: 00 7B 81 28 0A D1 11 A0 FF F7 3C FC 00 20 FF F7 ...  returns 0x00 (0004ms, 1052ms total)
T1E8C 008:780 JLINK_ReadMem (0x20400064, 0x0004 Bytes, ...) -- CPU_ReadMem(64 bytes @ 0x20400040) -- Updating C cache (64 bytes @ 0x20400040) -- Read from C cache (4 bytes @ 0x20400064) - Data: 55 05 00 00  returns 0x00 (0004ms, 1056ms total)
T1E8C 008:784 JLINK_ReadMem (0x20400068, 0x0004 Bytes, ...) -- Read from C cache (4 bytes @ 0x20400068) - Data: 01 00 00 00  returns 0x00 (0000ms, 1056ms total)
T1E8C 008:784 JLINK_ReadMem (0x2040006C, 0x0004 Bytes, ...) -- Read from C cache (4 bytes @ 0x2040006C) - Data: 00 00 00 00  returns 0x00 (0000ms, 1056ms total)
T1E8C 008:784 JLINK_ReadMem (0x20400070, 0x0001 Bytes, ...) -- Read from C cache (1 bytes @ 0x20400070) - Data: 81  returns 0x00 (0000ms, 1056ms total)
T1E8C 008:784 JLINK_ReadMem (0x20400071, 0x0001 Bytes, ...) -- Read from C cache (1 bytes @ 0x20400071) - Data: 00  returns 0x00 (0000ms, 1056ms total)
T1E8C 008:784 JLINK_ReadMem (0x20400072, 0x0001 Bytes, ...) -- Read from C cache (1 bytes @ 0x20400072) - Data: 00  returns 0x00 (0000ms, 1056ms total)
T1E8C 008:784 JLINK_ReadMem (0x20400073, 0x0001 Bytes, ...) -- Read from C cache (1 bytes @ 0x20400073) - Data: 00  returns 0x00 (0000ms, 1056ms total)
T1E8C 008:784 JLINK_ReadMem (0x20400074, 0x0001 Bytes, ...) -- Read from C cache (1 bytes @ 0x20400074) - Data: 00  returns 0x00 (0000ms, 1056ms total)
T1E8C 008:784 JLINK_ReadMem (0x20400075, 0x0001 Bytes, ...) -- Read from C cache (1 bytes @ 0x20400075) - Data: 00  returns 0x00 (0000ms, 1056ms total)
T1E8C 008:784 JLINK_ReadMem (0x20400076, 0x0001 Bytes, ...) -- Read from C cache (1 bytes @ 0x20400076) - Data: 00  returns 0x00 (0000ms, 1056ms total)
T1E8C 008:784 JLINK_ReadMem (0x20400077, 0x0001 Bytes, ...) -- Read from C cache (1 bytes @ 0x20400077) - Data: 00  returns 0x00 (0000ms, 1056ms total)
T1B5C 016:566 JLINK_Step() -- Read from C cache (2 bytes @ 0x0040096A) -- CPU_ReadMem(4 bytes @ 0xE000ED18) -- CPU_WriteMem(4 bytes @ 0xE000ED18) -- CPU_ReadMem(4 bytes @ 0xE000ED18) -- CPU_WriteMem(4 bytes @ 0xE000ED18) -- Read from C cache (4 bytes @ 0x004009AC) -- Simulated  returns 0x00 (0014ms, 1070ms total)
T1B5C 016:580 JLINK_ReadReg(R15 (PC))  returns 0x0040096C (0000ms, 1070ms total)
T1B5C 016:580 JLINK_ReadReg(XPSR)  returns 0x61000036 (0000ms, 1070ms total)
T1B5C 016:580 JLINK_Step() -- Read from C cache (2 bytes @ 0x0040096C) -- Read from C cache (1 bytes @ 0x20400070) -- Simulated  returns 0x00 (0000ms, 1070ms total)
T1B5C 016:580 JLINK_ReadReg(R15 (PC))  returns 0x0040096E (0000ms, 1070ms total)
T1B5C 016:580 JLINK_ReadReg(XPSR)  returns 0x61000036 (0000ms, 1070ms total)
T1B5C 016:580 JLINK_Step() -- Read from C cache (2 bytes @ 0x0040096E) -- Simulated  returns 0x00 (0000ms, 1070ms total)
T1B5C 016:580 JLINK_ReadReg(R15 (PC))  returns 0x00400970 (0000ms, 1070ms total)
T1B5C 016:580 JLINK_ReadReg(XPSR)  returns 0x61000036 (0000ms, 1070ms total)
T1B5C 016:580 JLINK_Step() -- Read from C cache (2 bytes @ 0x00400970) -- Simulated  returns 0x00 (0000ms, 1070ms total)
T1B5C 016:580 JLINK_ReadReg(R15 (PC))  returns 0x00400972 (0000ms, 1070ms total)
T1B5C 016:580 JLINK_ReadReg(XPSR)  returns 0x61000036 (0000ms, 1070ms total)
T1B5C 016:580 JLINK_ReadReg(R0)  returns 0x00000081 (0000ms, 1070ms total)
T1B5C 016:580 JLINK_ReadReg(R1)  returns 0x20400050 (0000ms, 1070ms total)
T1B5C 016:580 JLINK_ReadReg(R2)  returns 0x004009B8 (0000ms, 1070ms total)
T1B5C 016:580 JLINK_ReadReg(R3)  returns 0x00000000 (0000ms, 1070ms total)
T1B5C 016:580 JLINK_ReadReg(R4)  returns 0x00000000 (0000ms, 1070ms total)
T1B5C 016:580 JLINK_ReadReg(R5)  returns 0x00000001 (0000ms, 1070ms total)
T1B5C 016:580 JLINK_ReadReg(R6)  returns 0x00000001 (0000ms, 1070ms total)
T1B5C 016:580 JLINK_ReadReg(R7)  returns 0x0040232F (0000ms, 1070ms total)
T1B5C 016:580 JLINK_ReadReg(R8)  returns 0x00000000 (0000ms, 1070ms total)
T1B5C 016:580 JLINK_ReadReg(R9)  returns 0x00000000 (0000ms, 1070ms total)
T1B5C 016:580 JLINK_ReadReg(R10)  returns 0x00402350 (0000ms, 1070ms total)
T1B5C 016:580 JLINK_ReadReg(R11)  returns 0x00402350 (0000ms, 1070ms total)
T1B5C 016:580 JLINK_ReadReg(R12)  returns 0x00000000 (0000ms, 1070ms total)
T1B5C 016:580 JLINK_ReadReg(R13 (SP))  returns 0x204035A8 (0000ms, 1070ms total)
T1B5C 016:580 JLINK_ReadReg(R14)  returns 0x004005C5 (0000ms, 1070ms total)
T1B5C 016:580 JLINK_ReadReg(R15 (PC))  returns 0x00400972 (0000ms, 1070ms total)
T1B5C 016:580 JLINK_ReadReg(XPSR)  returns 0x61000036 (0000ms, 1070ms total)
T1B5C 016:580 JLINK_ReadReg(MSP)  returns 0x204035A8 (0000ms, 1070ms total)
T1B5C 016:580 JLINK_ReadReg(PSP)  returns 0x00000000 (0000ms, 1070ms total)
T1B5C 016:580 JLINK_ReadReg(CFBP)  returns 0x00000000 (0000ms, 1070ms total)
T1B5C 016:580 JLINK_ReadReg(FPSCR)  returns 0x00000000 (0000ms, 1070ms total)
T1B5C 016:580 JLINK_ReadReg(FPS0)  returns 0x00000000 (0000ms, 1070ms total)
T1B5C 016:580 JLINK_ReadReg(FPS1)  returns 0x00000000 (0000ms, 1070ms total)
T1B5C 016:580 JLINK_ReadReg(FPS2)  returns 0x00000000 (0000ms, 1070ms total)
T1B5C 016:580 JLINK_ReadReg(FPS3)  returns 0x00000000 (0000ms, 1070ms total)
T1B5C 016:580 JLINK_ReadReg(FPS4)  returns 0x00000000 (0000ms, 1070ms total)
T1B5C 016:580 JLINK_ReadReg(FPS5)  returns 0x00000000 (0000ms, 1070ms total)
T1B5C 016:580 JLINK_ReadReg(FPS6)  returns 0x00000000 (0000ms, 1070ms total)
T1B5C 016:580 JLINK_ReadReg(FPS7)  returns 0x00000000 (0000ms, 1070ms total)
T1B5C 016:580 JLINK_ReadReg(FPS8)  returns 0x00000000 (0000ms, 1070ms total)
T1B5C 016:580 JLINK_ReadReg(FPS9)  returns 0x00000000 (0000ms, 1070ms total)
T1B5C 016:580 JLINK_ReadReg(FPS10)  returns 0x00000000 (0000ms, 1070ms total)
T1B5C 016:580 JLINK_ReadReg(FPS11)  returns 0x00000000 (0000ms, 1070ms total)
T1B5C 016:580 JLINK_ReadReg(FPS12)  returns 0x00000000 (0000ms, 1070ms total)
T1B5C 016:580 JLINK_ReadReg(FPS13)  returns 0x00000000 (0000ms, 1070ms total)
T1B5C 016:580 JLINK_ReadReg(FPS14)  returns 0x00000000 (0000ms, 1070ms total)
T1B5C 016:580 JLINK_ReadReg(FPS15)  returns 0xFFFFFFFF (0000ms, 1070ms total)
T1B5C 016:580 JLINK_ReadReg(FPS16)  returns 0x00000000 (0000ms, 1070ms total)
T1B5C 016:580 JLINK_ReadReg(FPS17)  returns 0x00000000 (0000ms, 1070ms total)
T1B5C 016:580 JLINK_ReadReg(FPS18)  returns 0x00000000 (0000ms, 1070ms total)
T1B5C 016:580 JLINK_ReadReg(FPS19)  returns 0x00000000 (0000ms, 1070ms total)
T1B5C 016:580 JLINK_ReadReg(FPS20)  returns 0x00000000 (0000ms, 1070ms total)
T1B5C 016:580 JLINK_ReadReg(FPS21)  returns 0x00000000 (0000ms, 1070ms total)
T1B5C 016:580 JLINK_ReadReg(FPS22)  returns 0x00000000 (0000ms, 1070ms total)
T1B5C 016:580 JLINK_ReadReg(FPS23)  returns 0x00000000 (0000ms, 1070ms total)
T1B5C 016:580 JLINK_ReadReg(FPS24)  returns 0x00000000 (0000ms, 1070ms total)
T1B5C 016:580 JLINK_ReadReg(FPS25)  returns 0x00000000 (0000ms, 1070ms total)
T1B5C 016:580 JLINK_ReadReg(FPS26)  returns 0x00000000 (0000ms, 1070ms total)
T1B5C 016:580 JLINK_ReadReg(FPS27)  returns 0x00000000 (0001ms, 1071ms total)
T1B5C 016:581 JLINK_ReadReg(FPS28)  returns 0x00000000 (0000ms, 1071ms total)
T1B5C 016:581 JLINK_ReadReg(FPS29)  returns 0x00000000 (0000ms, 1071ms total)
T1B5C 016:581 JLINK_ReadReg(FPS30)  returns 0x00000000 (0000ms, 1071ms total)
T1B5C 016:581 JLINK_ReadReg(FPS31)  returns 0xFFFFFFFF (0000ms, 1071ms total)
T1E8C 016:581 JLINK_ReadMem (0x204035AC, 0x0004 Bytes, ...) -- Read from C cache (4 bytes @ 0x204035AC) - Data: F9 FF FF FF  returns 0x00 (0000ms, 1071ms total)
T1E8C 016:581 JLINK_ReadMem (0x204035C8, 0x0004 Bytes, ...) -- Read from C cache (4 bytes @ 0x204035C8) - Data: 7A 0C 40 00  returns 0x00 (0000ms, 1071ms total)
T1E8C 016:581 JLINK_ReadMem (0x204035CC, 0x0004 Bytes, ...) -- Read from C cache (4 bytes @ 0x204035CC) - Data: 00 00 00 61  returns 0x00 (0000ms, 1071ms total)
T1E8C 016:581 JLINK_ReadMem (0x204035C4, 0x0004 Bytes, ...) -- Read from C cache (4 bytes @ 0x204035C4) - Data: BD 1F 40 00  returns 0x00 (0000ms, 1071ms total)
T1E8C 016:581 JLINK_ReadMem (0xE000ED28, 0x0004 Bytes, ...) -- CPU_ReadMem(4 bytes @ 0xE000ED28) - Data: 00 00 00 00  returns 0x00 (0002ms, 1073ms total)
T1E8C 016:584 JLINK_ReadMem (0x204035F4, 0x0004 Bytes, ...) -- Read from C cache (4 bytes @ 0x204035F4) - Data: BD 1F 40 00  returns 0x00 (0000ms, 1073ms total)
T1E8C 016:584 JLINK_ReadMem (0x204035D4, 0x0004 Bytes, ...) -- Read from C cache (4 bytes @ 0x204035D4) - Data: 00 00 00 00  returns 0x00 (0000ms, 1073ms total)
T1E8C 016:584 JLINK_ReadMem (0x204035D8, 0x0004 Bytes, ...) -- Read from C cache (4 bytes @ 0x204035D8) - Data: 01 00 00 00  returns 0x00 (0000ms, 1073ms total)
T1E8C 016:584 JLINK_ReadMem (0x204035DC, 0x0004 Bytes, ...) -- Read from C cache (4 bytes @ 0x204035DC) - Data: 01 00 00 00  returns 0x00 (0000ms, 1073ms total)
T1E8C 016:584 JLINK_ReadMem (0x204035E0, 0x0004 Bytes, ...) -- Read from C cache (4 bytes @ 0x204035E0) - Data: 2F 23 40 00  returns 0x00 (0000ms, 1073ms total)
T1E8C 016:584 JLINK_ReadMem (0x204035E4, 0x0004 Bytes, ...) -- Read from C cache (4 bytes @ 0x204035E4) - Data: 00 00 00 00  returns 0x00 (0000ms, 1073ms total)
T1E8C 016:584 JLINK_ReadMem (0x204035E8, 0x0004 Bytes, ...) -- Read from C cache (4 bytes @ 0x204035E8) - Data: 00 00 00 00  returns 0x00 (0000ms, 1073ms total)
T1E8C 016:584 JLINK_ReadMem (0x204035EC, 0x0004 Bytes, ...) -- Read from C cache (4 bytes @ 0x204035EC) - Data: 50 23 40 00  returns 0x00 (0000ms, 1073ms total)
T1E8C 016:584 JLINK_ReadMem (0x204035F0, 0x0004 Bytes, ...) -- Read from C cache (4 bytes @ 0x204035F0) - Data: 50 23 40 00  returns 0x00 (0000ms, 1073ms total)
T1E8C 016:584 JLINK_ReadMem (0x20403604, 0x0004 Bytes, ...) -- Read from C cache (4 bytes @ 0x20403604) - Data: D9 01 40 00  returns 0x00 (0000ms, 1073ms total)
T1E8C 016:584 JLINK_ReadMemU32(0xE0001004, 0x0001 Items, ...) - Data: 61 69 D5 04  returns 0x01 (0000ms, 1073ms total)
T1E8C 016:585 JLINK_ReadMem (0x00400972, 0x0002 Bytes, ...) -- Read from C cache (2 bytes @ 0x00400972) - Data: 11 A0  returns 0x00 (0000ms, 1073ms total)
T1E8C 016:585 JLINK_ReadMem (0x00400974, 0x003C Bytes, ...) -- Read from C cache (60 bytes @ 0x00400974) - Data: FF F7 3C FC 00 20 FF F7 AD FF 10 48 00 68 40 1C ...  returns 0x00 (0000ms, 1073ms total)
T1B5C 017:261 JLINK_Step() -- Read from C cache (2 bytes @ 0x00400972) -- Simulated  returns 0x00 (0004ms, 1077ms total)
T1B5C 017:265 JLINK_ReadReg(R15 (PC))  returns 0x00400974 (0000ms, 1077ms total)
T1B5C 017:265 JLINK_ReadReg(XPSR)  returns 0x61000036 (0000ms, 1077ms total)
T1B5C 017:265 JLINK_Step() -- Read from C cache (2 bytes @ 0x00400974) -- Read from C cache (2 bytes @ 0x00400976) -- Simulated  returns 0x00 (0000ms, 1077ms total)
T1B5C 017:265 JLINK_ReadReg(R15 (PC))  returns 0x004001F0 (0000ms, 1077ms total)
T1B5C 017:265 JLINK_ReadReg(XPSR)  returns 0x61000036 (0000ms, 1077ms total)
T1B5C 017:265 JLINK_Step() -- CPU_ReadMem(64 bytes @ 0x004001C0) -- Updating C cache (64 bytes @ 0x004001C0) -- Read from C cache (2 bytes @ 0x004001F0) -- CPU_WriteMem(16 bytes @ 0x20403598) -- Simulated  returns 0x00 (0005ms, 1082ms total)
T1B5C 017:270 JLINK_ReadReg(R15 (PC))  returns 0x004001F2 (0000ms, 1082ms total)
T1B5C 017:270 JLINK_ReadReg(XPSR)  returns 0x61000036 (0000ms, 1082ms total)
T1B5C 017:270 JLINK_Step() -- Read from C cache (2 bytes @ 0x004001F2) -- CPU_ReadMem(64 bytes @ 0x00400200) -- Updating C cache (64 bytes @ 0x00400200) -- Read from C cache (4 bytes @ 0x00400204) -- Simulated  returns 0x00 (0003ms, 1085ms total)
T1B5C 017:273 JLINK_ReadReg(R15 (PC))  returns 0x004001F4 (0000ms, 1085ms total)
T1B5C 017:273 JLINK_ReadReg(XPSR)  returns 0x61000036 (0000ms, 1085ms total)
T1B5C 017:273 JLINK_Step() -- Read from C cache (2 bytes @ 0x004001F4) -- CPU_WriteMem(8 bytes @ 0x20403590) -- Simulated  returns 0x00 (0003ms, 1088ms total)
T1B5C 017:276 JLINK_ReadReg(R15 (PC))  returns 0x004001F6 (0000ms, 1088ms total)
T1B5C 017:276 JLINK_ReadReg(XPSR)  returns 0x61000036 (0000ms, 1088ms total)
T1B5C 017:276 JLINK_Step() -- Read from C cache (2 bytes @ 0x004001F6) -- Simulated  returns 0x00 (0000ms, 1088ms total)
T1B5C 017:276 JLINK_ReadReg(R15 (PC))  returns 0x004001F8 (0000ms, 1088ms total)
T1B5C 017:276 JLINK_ReadReg(XPSR)  returns 0x61000036 (0000ms, 1088ms total)
T1B5C 017:276 JLINK_SetBPEx(Addr = 0x00400978, Type = 0xFFFFFFF2)  returns 0x00000002 (0000ms, 1088ms total)
T1B5C 017:276 JLINK_SetBPEx(Addr = 0x0040096A, Type = 0xFFFFFFF2)  returns 0x00000003 (0000ms, 1088ms total)
T1B5C 017:276 JLINK_Go() -- CPU_WriteMem(4 bytes @ 0xE0002000) -- CPU_WriteMem(4 bytes @ 0xE0002000) -- CPU_ReadMem(4 bytes @ 0xE0001000) -- CPU_WriteMem(4 bytes @ 0xE0002008) -- CPU_WriteMem(4 bytes @ 0xE000200C) -- CPU_WriteMem(4 bytes @ 0xE0001004) (0021ms, 1109ms total)
T1B5C 017:397 JLINK_IsHalted()  returns TRUE (0006ms, 1115ms total)
T1B5C 017:403 JLINK_Halt()  returns 0x00 (0000ms, 1109ms total)
T1B5C 017:403 JLINK_IsHalted()  returns TRUE (0000ms, 1109ms total)
T1B5C 017:403 JLINK_IsHalted()  returns TRUE (0000ms, 1109ms total)
T1B5C 017:403 JLINK_IsHalted()  returns TRUE (0000ms, 1109ms total)
T1B5C 017:403 JLINK_ReadReg(R15 (PC))  returns 0x00400978 (0000ms, 1109ms total)
T1B5C 017:403 JLINK_ReadReg(XPSR)  returns 0x61000036 (0000ms, 1109ms total)
T1B5C 017:403 JLINK_ClrBPEx(BPHandle = 0x00000002)  returns 0x00 (0000ms, 1109ms total)
T1B5C 017:403 JLINK_ClrBPEx(BPHandle = 0x00000003)  returns 0x00 (0000ms, 1109ms total)
T1B5C 017:403 JLINK_ReadMemU32(0xE000ED30, 0x0001 Items, ...) -- CPU_ReadMem(4 bytes @ 0xE000ED30) - Data: 02 00 00 00  returns 0x01 (0003ms, 1112ms total)
T1B5C 017:406 JLINK_ReadMemU32(0xE0001028, 0x0001 Items, ...) -- CPU_ReadMem(4 bytes @ 0xE0001028) - Data: 00 00 00 00  returns 0x01 (0002ms, 1114ms total)
T1B5C 017:408 JLINK_ReadMemU32(0xE0001038, 0x0001 Items, ...) -- CPU_ReadMem(4 bytes @ 0xE0001038) - Data: 00 02 00 00  returns 0x01 (0002ms, 1116ms total)
T1B5C 017:410 JLINK_ReadMemU32(0xE0001048, 0x0001 Items, ...) -- CPU_ReadMem(4 bytes @ 0xE0001048) - Data: 00 00 00 00  returns 0x01 (0002ms, 1118ms total)
T1B5C 017:412 JLINK_ReadMemU32(0xE0001058, 0x0001 Items, ...) -- CPU_ReadMem(4 bytes @ 0xE0001058) - Data: 00 00 00 00  returns 0x01 (0002ms, 1120ms total)
T1B5C 017:415 JLINK_ReadReg(R0)  returns 0xFFFFFFFF (0000ms, 1120ms total)
T1B5C 017:415 JLINK_ReadReg(R1)  returns 0x20400050 (0000ms, 1120ms total)
T1B5C 017:415 JLINK_ReadReg(R2)  returns 0x004009C0 (0000ms, 1120ms total)
T1B5C 017:415 JLINK_ReadReg(R3)  returns 0x00401D61 (0000ms, 1120ms total)
T1B5C 017:415 JLINK_ReadReg(R4)  returns 0x00000000 (0000ms, 1120ms total)
T1B5C 017:415 JLINK_ReadReg(R5)  returns 0x00000001 (0000ms, 1120ms total)
T1B5C 017:415 JLINK_ReadReg(R6)  returns 0x00000001 (0000ms, 1120ms total)
T1B5C 017:415 JLINK_ReadReg(R7)  returns 0x0040232F (0000ms, 1120ms total)
T1B5C 017:415 JLINK_ReadReg(R8)  returns 0x00000000 (0000ms, 1120ms total)
T1B5C 017:415 JLINK_ReadReg(R9)  returns 0x00000000 (0000ms, 1120ms total)
T1B5C 017:415 JLINK_ReadReg(R10)  returns 0x00402350 (0000ms, 1120ms total)
T1B5C 017:415 JLINK_ReadReg(R11)  returns 0x00402350 (0000ms, 1120ms total)
T1B5C 017:415 JLINK_ReadReg(R12)  returns 0x00000000 (0000ms, 1120ms total)
T1B5C 017:415 JLINK_ReadReg(R13 (SP))  returns 0x204035A8 (0000ms, 1120ms total)
T1B5C 017:415 JLINK_ReadReg(R14)  returns 0x004005C5 (0000ms, 1120ms total)
T1B5C 017:415 JLINK_ReadReg(R15 (PC))  returns 0x00400978 (0000ms, 1120ms total)
T1B5C 017:415 JLINK_ReadReg(XPSR)  returns 0x61000036 (0000ms, 1120ms total)
T1B5C 017:415 JLINK_ReadReg(MSP)  returns 0x204035A8 (0000ms, 1120ms total)
T1B5C 017:415 JLINK_ReadReg(PSP)  returns 0x00000000 (0000ms, 1120ms total)
T1B5C 017:415 JLINK_ReadReg(CFBP)  returns 0x00000000 (0000ms, 1120ms total)
T1B5C 017:415 JLINK_ReadReg(FPSCR)  returns 0x00000000 (0007ms, 1127ms total)
T1B5C 017:422 JLINK_ReadReg(FPS0)  returns 0x00000000 (0000ms, 1127ms total)
T1B5C 017:422 JLINK_ReadReg(FPS1)  returns 0x00000000 (0000ms, 1127ms total)
T1B5C 017:422 JLINK_ReadReg(FPS2)  returns 0x00000000 (0000ms, 1127ms total)
T1B5C 017:422 JLINK_ReadReg(FPS3)  returns 0x00000000 (0000ms, 1127ms total)
T1B5C 017:422 JLINK_ReadReg(FPS4)  returns 0x00000000 (0000ms, 1127ms total)
T1B5C 017:422 JLINK_ReadReg(FPS5)  returns 0x00000000 (0000ms, 1127ms total)
T1B5C 017:422 JLINK_ReadReg(FPS6)  returns 0x00000000 (0000ms, 1127ms total)
T1B5C 017:422 JLINK_ReadReg(FPS7)  returns 0x00000000 (0000ms, 1127ms total)
T1B5C 017:422 JLINK_ReadReg(FPS8)  returns 0x00000000 (0000ms, 1127ms total)
T1B5C 017:422 JLINK_ReadReg(FPS9)  returns 0x00000000 (0000ms, 1127ms total)
T1B5C 017:422 JLINK_ReadReg(FPS10)  returns 0x00000000 (0000ms, 1127ms total)
T1B5C 017:422 JLINK_ReadReg(FPS11)  returns 0x00000000 (0000ms, 1127ms total)
T1B5C 017:422 JLINK_ReadReg(FPS12)  returns 0x00000000 (0000ms, 1127ms total)
T1B5C 017:422 JLINK_ReadReg(FPS13)  returns 0x00000000 (0000ms, 1127ms total)
T1B5C 017:422 JLINK_ReadReg(FPS14)  returns 0x00000000 (0000ms, 1127ms total)
T1B5C 017:422 JLINK_ReadReg(FPS15)  returns 0xFFFFFFFF (0000ms, 1127ms total)
T1B5C 017:422 JLINK_ReadReg(FPS16)  returns 0x00000000 (0000ms, 1127ms total)
T1B5C 017:422 JLINK_ReadReg(FPS17)  returns 0x00000000 (0000ms, 1127ms total)
T1B5C 017:422 JLINK_ReadReg(FPS18)  returns 0x00000000 (0000ms, 1127ms total)
T1B5C 017:422 JLINK_ReadReg(FPS19)  returns 0x00000000 (0000ms, 1127ms total)
T1B5C 017:422 JLINK_ReadReg(FPS20)  returns 0x00000000 (0000ms, 1127ms total)
T1B5C 017:422 JLINK_ReadReg(FPS21)  returns 0x00000000 (0000ms, 1127ms total)
T1B5C 017:422 JLINK_ReadReg(FPS22)  returns 0x00000000 (0000ms, 1127ms total)
T1B5C 017:422 JLINK_ReadReg(FPS23)  returns 0x00000000 (0000ms, 1127ms total)
T1B5C 017:422 JLINK_ReadReg(FPS24)  returns 0x00000000 (0000ms, 1127ms total)
T1B5C 017:422 JLINK_ReadReg(FPS25)  returns 0x00000000 (0000ms, 1127ms total)
T1B5C 017:422 JLINK_ReadReg(FPS26)  returns 0x00000000 (0000ms, 1127ms total)
T1B5C 017:422 JLINK_ReadReg(FPS27)  returns 0x00000000 (0000ms, 1127ms total)
T1B5C 017:422 JLINK_ReadReg(FPS28)  returns 0x00000000 (0000ms, 1127ms total)
T1B5C 017:422 JLINK_ReadReg(FPS29)  returns 0x00000000 (0000ms, 1127ms total)
T1B5C 017:422 JLINK_ReadReg(FPS30)  returns 0x00000000 (0000ms, 1127ms total)
T1B5C 017:422 JLINK_ReadReg(FPS31)  returns 0xFFFFFFFF (0000ms, 1127ms total)
T1E8C 017:422 JLINK_ReadMem (0x204035AC, 0x0004 Bytes, ...) -- CPU_ReadMem(64 bytes @ 0x20403580) -- Updating C cache (64 bytes @ 0x20403580) -- Read from C cache (4 bytes @ 0x204035AC) - Data: F9 FF FF FF  returns 0x00 (0003ms, 1130ms total)
T1E8C 017:425 JLINK_ReadMem (0x204035C8, 0x0004 Bytes, ...) -- CPU_ReadMem(64 bytes @ 0x204035C0) -- Updating C cache (64 bytes @ 0x204035C0) -- Read from C cache (4 bytes @ 0x204035C8) - Data: 7A 0C 40 00  returns 0x00 (0003ms, 1133ms total)
T1E8C 017:428 JLINK_ReadMem (0x204035CC, 0x0004 Bytes, ...) -- Read from C cache (4 bytes @ 0x204035CC) - Data: 00 00 00 61  returns 0x00 (0000ms, 1133ms total)
T1E8C 017:428 JLINK_ReadMem (0x204035C4, 0x0004 Bytes, ...) -- Read from C cache (4 bytes @ 0x204035C4) - Data: BD 1F 40 00  returns 0x00 (0000ms, 1133ms total)
T1E8C 017:428 JLINK_ReadMem (0xE000ED28, 0x0004 Bytes, ...) -- CPU_ReadMem(4 bytes @ 0xE000ED28) - Data: 00 00 00 00  returns 0x00 (0002ms, 1135ms total)
T1E8C 017:430 JLINK_ReadMem (0x204035F4, 0x0004 Bytes, ...) -- Read from C cache (4 bytes @ 0x204035F4) - Data: BD 1F 40 00  returns 0x00 (0000ms, 1135ms total)
T1E8C 017:430 JLINK_ReadMem (0x204035D4, 0x0004 Bytes, ...) -- Read from C cache (4 bytes @ 0x204035D4) - Data: 00 00 00 00  returns 0x00 (0000ms, 1135ms total)
T1E8C 017:430 JLINK_ReadMem (0x204035D8, 0x0004 Bytes, ...) -- Read from C cache (4 bytes @ 0x204035D8) - Data: 01 00 00 00  returns 0x00 (0000ms, 1135ms total)
T1E8C 017:430 JLINK_ReadMem (0x204035DC, 0x0004 Bytes, ...) -- Read from C cache (4 bytes @ 0x204035DC) - Data: 01 00 00 00  returns 0x00 (0000ms, 1135ms total)
T1E8C 017:430 JLINK_ReadMem (0x204035E0, 0x0004 Bytes, ...) -- Read from C cache (4 bytes @ 0x204035E0) - Data: 2F 23 40 00  returns 0x00 (0000ms, 1135ms total)
T1E8C 017:430 JLINK_ReadMem (0x204035E4, 0x0004 Bytes, ...) -- Read from C cache (4 bytes @ 0x204035E4) - Data: 00 00 00 00  returns 0x00 (0000ms, 1135ms total)
T1E8C 017:430 JLINK_ReadMem (0x204035E8, 0x0004 Bytes, ...) -- Read from C cache (4 bytes @ 0x204035E8) - Data: 00 00 00 00  returns 0x00 (0000ms, 1135ms total)
T1E8C 017:430 JLINK_ReadMem (0x204035EC, 0x0004 Bytes, ...) -- Read from C cache (4 bytes @ 0x204035EC) - Data: 50 23 40 00  returns 0x00 (0000ms, 1135ms total)
T1E8C 017:430 JLINK_ReadMem (0x204035F0, 0x0004 Bytes, ...) -- Read from C cache (4 bytes @ 0x204035F0) - Data: 50 23 40 00  returns 0x00 (0000ms, 1135ms total)
T1E8C 017:430 JLINK_ReadMem (0x20403604, 0x0004 Bytes, ...) -- CPU_ReadMem(64 bytes @ 0x20403600) -- Updating C cache (64 bytes @ 0x20403600) -- Read from C cache (4 bytes @ 0x20403604) - Data: D9 01 40 00  returns 0x00 (0003ms, 1138ms total)
T1E8C 017:433 JLINK_ReadMemU32(0xE0001004, 0x0001 Items, ...) -- CPU_ReadMem(4 bytes @ 0xE0001004) - Data: A7 70 D8 04  returns 0x01 (0003ms, 1141ms total)
T1E8C 017:437 JLINK_ReadMem (0x00400978, 0x003C Bytes, ...) -- CPU_ReadMem(128 bytes @ 0x00400940) -- Updating C cache (128 bytes @ 0x00400940) -- Read from C cache (60 bytes @ 0x00400978) - Data: 00 20 FF F7 AD FF 10 48 00 68 40 1C 0E 49 08 60 ...  returns 0x00 (0003ms, 1144ms total)
T1B5C 022:317 JLINK_SetBPEx(Addr = 0x0040096A, Type = 0xFFFFFFF2)  returns 0x00000004 (0000ms, 1144ms total)
T1B5C 022:317 JLINK_Go() -- CPU_WriteMem(4 bytes @ 0xE0002000) -- CPU_ReadMem(4 bytes @ 0xE0001000) -- CPU_WriteMem(4 bytes @ 0xE0002008) -- CPU_WriteMem(4 bytes @ 0xE000200C) (0015ms, 1159ms total)
T1B5C 022:432 JLINK_IsHalted()  returns TRUE (0005ms, 1164ms total)
T1B5C 022:437 JLINK_Halt()  returns 0x00 (0000ms, 1159ms total)
T1B5C 022:437 JLINK_IsHalted()  returns TRUE (0000ms, 1159ms total)
T1B5C 022:437 JLINK_IsHalted()  returns TRUE (0000ms, 1159ms total)
T1B5C 022:437 JLINK_IsHalted()  returns TRUE (0000ms, 1159ms total)
T1B5C 022:437 JLINK_ReadReg(R15 (PC))  returns 0x0040096A (0000ms, 1159ms total)
T1B5C 022:437 JLINK_ReadReg(XPSR)  returns 0x61000036 (0000ms, 1159ms total)
T1B5C 022:437 JLINK_ClrBPEx(BPHandle = 0x00000004)  returns 0x00 (0000ms, 1159ms total)
T1B5C 022:437 JLINK_ReadMemU32(0xE000ED30, 0x0001 Items, ...) -- CPU_ReadMem(4 bytes @ 0xE000ED30) - Data: 02 00 00 00  returns 0x01 (0002ms, 1161ms total)
T1B5C 022:439 JLINK_ReadMemU32(0xE0001028, 0x0001 Items, ...) -- CPU_ReadMem(4 bytes @ 0xE0001028) - Data: 00 00 00 00  returns 0x01 (0003ms, 1164ms total)
T1B5C 022:442 JLINK_ReadMemU32(0xE0001038, 0x0001 Items, ...) -- CPU_ReadMem(4 bytes @ 0xE0001038) - Data: 00 02 00 00  returns 0x01 (0002ms, 1166ms total)
T1B5C 022:444 JLINK_ReadMemU32(0xE0001048, 0x0001 Items, ...) -- CPU_ReadMem(4 bytes @ 0xE0001048) - Data: 00 00 00 00  returns 0x01 (0002ms, 1168ms total)
T1B5C 022:446 JLINK_ReadMemU32(0xE0001058, 0x0001 Items, ...) -- CPU_ReadMem(4 bytes @ 0xE0001058) - Data: 00 00 00 00  returns 0x01 (0002ms, 1170ms total)
T1B5C 022:449 JLINK_ReadReg(R0)  returns 0xFFFFFFFF (0000ms, 1170ms total)
T1B5C 022:449 JLINK_ReadReg(R1)  returns 0x20400050 (0000ms, 1170ms total)
T1B5C 022:449 JLINK_ReadReg(R2)  returns 0x004009B8 (0000ms, 1170ms total)
T1B5C 022:449 JLINK_ReadReg(R3)  returns 0x00000000 (0000ms, 1170ms total)
T1B5C 022:449 JLINK_ReadReg(R4)  returns 0x00000000 (0000ms, 1170ms total)
T1B5C 022:449 JLINK_ReadReg(R5)  returns 0x00000002 (0000ms, 1170ms total)
T1B5C 022:449 JLINK_ReadReg(R6)  returns 0x00000001 (0000ms, 1170ms total)
T1B5C 022:449 JLINK_ReadReg(R7)  returns 0x0040232F (0000ms, 1170ms total)
T1B5C 022:449 JLINK_ReadReg(R8)  returns 0x00000000 (0000ms, 1170ms total)
T1B5C 022:449 JLINK_ReadReg(R9)  returns 0x00000000 (0000ms, 1170ms total)
T1B5C 022:449 JLINK_ReadReg(R10)  returns 0x00402350 (0000ms, 1170ms total)
T1B5C 022:449 JLINK_ReadReg(R11)  returns 0x00402350 (0000ms, 1170ms total)
T1B5C 022:449 JLINK_ReadReg(R12)  returns 0x00000001 (0000ms, 1170ms total)
T1B5C 022:449 JLINK_ReadReg(R13 (SP))  returns 0x204035D0 (0000ms, 1170ms total)
T1B5C 022:449 JLINK_ReadReg(R14)  returns 0x004005C5 (0000ms, 1170ms total)
T1B5C 022:449 JLINK_ReadReg(R15 (PC))  returns 0x0040096A (0000ms, 1170ms total)
T1B5C 022:449 JLINK_ReadReg(XPSR)  returns 0x61000036 (0000ms, 1170ms total)
T1B5C 022:449 JLINK_ReadReg(MSP)  returns 0x204035D0 (0000ms, 1170ms total)
T1B5C 022:449 JLINK_ReadReg(PSP)  returns 0x00000000 (0000ms, 1170ms total)
T1B5C 022:449 JLINK_ReadReg(CFBP)  returns 0x00000000 (0000ms, 1170ms total)
T1B5C 022:449 JLINK_ReadReg(FPSCR)  returns 0x00000000 (0010ms, 1180ms total)
T1B5C 022:459 JLINK_ReadReg(FPS0)  returns 0x00000000 (0000ms, 1180ms total)
T1B5C 022:459 JLINK_ReadReg(FPS1)  returns 0x00000000 (0000ms, 1180ms total)
T1B5C 022:459 JLINK_ReadReg(FPS2)  returns 0x00000000 (0000ms, 1180ms total)
T1B5C 022:459 JLINK_ReadReg(FPS3)  returns 0x00000000 (0000ms, 1180ms total)
T1B5C 022:459 JLINK_ReadReg(FPS4)  returns 0x00000000 (0000ms, 1180ms total)
T1B5C 022:459 JLINK_ReadReg(FPS5)  returns 0x00000000 (0000ms, 1180ms total)
T1B5C 022:459 JLINK_ReadReg(FPS6)  returns 0x00000000 (0000ms, 1180ms total)
T1B5C 022:459 JLINK_ReadReg(FPS7)  returns 0x00000000 (0000ms, 1180ms total)
T1B5C 022:459 JLINK_ReadReg(FPS8)  returns 0x00000000 (0000ms, 1180ms total)
T1B5C 022:459 JLINK_ReadReg(FPS9)  returns 0x00000000 (0000ms, 1180ms total)
T1B5C 022:459 JLINK_ReadReg(FPS10)  returns 0x00000000 (0000ms, 1180ms total)
T1B5C 022:459 JLINK_ReadReg(FPS11)  returns 0x00000000 (0000ms, 1180ms total)
T1B5C 022:459 JLINK_ReadReg(FPS12)  returns 0x00000000 (0000ms, 1180ms total)
T1B5C 022:459 JLINK_ReadReg(FPS13)  returns 0x00000000 (0000ms, 1180ms total)
T1B5C 022:459 JLINK_ReadReg(FPS14)  returns 0x00000000 (0000ms, 1180ms total)
T1B5C 022:459 JLINK_ReadReg(FPS15)  returns 0xFFFFFFFF (0000ms, 1180ms total)
T1B5C 022:459 JLINK_ReadReg(FPS16)  returns 0x00000000 (0000ms, 1180ms total)
T1B5C 022:459 JLINK_ReadReg(FPS17)  returns 0x00000000 (0000ms, 1180ms total)
T1B5C 022:459 JLINK_ReadReg(FPS18)  returns 0x00000000 (0000ms, 1180ms total)
T1B5C 022:459 JLINK_ReadReg(FPS19)  returns 0x00000000 (0000ms, 1180ms total)
T1B5C 022:459 JLINK_ReadReg(FPS20)  returns 0x00000000 (0000ms, 1180ms total)
T1B5C 022:459 JLINK_ReadReg(FPS21)  returns 0x00000000 (0000ms, 1180ms total)
T1B5C 022:459 JLINK_ReadReg(FPS22)  returns 0x00000000 (0000ms, 1180ms total)
T1B5C 022:459 JLINK_ReadReg(FPS23)  returns 0x00000000 (0000ms, 1180ms total)
T1B5C 022:459 JLINK_ReadReg(FPS24)  returns 0x00000000 (0000ms, 1180ms total)
T1B5C 022:459 JLINK_ReadReg(FPS25)  returns 0x00000000 (0000ms, 1180ms total)
T1B5C 022:459 JLINK_ReadReg(FPS26)  returns 0x00000000 (0000ms, 1180ms total)
T1B5C 022:459 JLINK_ReadReg(FPS27)  returns 0x00000000 (0000ms, 1180ms total)
T1B5C 022:459 JLINK_ReadReg(FPS28)  returns 0x00000000 (0000ms, 1180ms total)
T1B5C 022:459 JLINK_ReadReg(FPS29)  returns 0x00000000 (0000ms, 1180ms total)
T1B5C 022:459 JLINK_ReadReg(FPS30)  returns 0x00000000 (0000ms, 1180ms total)
T1B5C 022:459 JLINK_ReadReg(FPS31)  returns 0xFFFFFFFF (0000ms, 1180ms total)
T1E8C 022:459 JLINK_ReadMem (0x204035D4, 0x0004 Bytes, ...) -- CPU_ReadMem(64 bytes @ 0x204035C0) -- Updating C cache (64 bytes @ 0x204035C0) -- Read from C cache (4 bytes @ 0x204035D4) - Data: F9 FF FF FF  returns 0x00 (0003ms, 1183ms total)
T1E8C 022:462 JLINK_ReadMem (0x204035F0, 0x0004 Bytes, ...) -- Read from C cache (4 bytes @ 0x204035F0) - Data: 94 1F 40 00  returns 0x00 (0000ms, 1183ms total)
T1E8C 022:462 JLINK_ReadMem (0x204035F4, 0x0004 Bytes, ...) -- Read from C cache (4 bytes @ 0x204035F4) - Data: 00 00 00 61  returns 0x00 (0000ms, 1183ms total)
T1E8C 022:462 JLINK_ReadMem (0x204035EC, 0x0004 Bytes, ...) -- Read from C cache (4 bytes @ 0x204035EC) - Data: BD 1F 40 00  returns 0x00 (0000ms, 1183ms total)
T1E8C 022:462 JLINK_ReadMem (0xE000ED28, 0x0004 Bytes, ...) -- CPU_ReadMem(4 bytes @ 0xE000ED28) - Data: 00 00 00 00  returns 0x00 (0003ms, 1186ms total)
T1E8C 022:465 JLINK_ReadMem (0x20403604, 0x0004 Bytes, ...) -- CPU_ReadMem(64 bytes @ 0x20403600) -- Updating C cache (64 bytes @ 0x20403600) -- Read from C cache (4 bytes @ 0x20403604) - Data: D9 01 40 00  returns 0x00 (0003ms, 1189ms total)
T1E8C 022:468 JLINK_ReadMem (0x20403600, 0x0004 Bytes, ...) -- Read from C cache (4 bytes @ 0x20403600) - Data: 00 00 00 00  returns 0x00 (0000ms, 1189ms total)
T1E8C 022:475 JLINK_ReadMemU32(0xE0001004, 0x0001 Items, ...) -- CPU_ReadMem(4 bytes @ 0xE0001004) - Data: 92 A5 DE 04  returns 0x01 (0003ms, 1192ms total)
T1E8C 022:479 JLINK_ReadMem (0x0040096A, 0x0002 Bytes, ...) -- CPU_ReadMem(64 bytes @ 0x00400940) -- Updating C cache (64 bytes @ 0x00400940) -- Read from C cache (2 bytes @ 0x0040096A) - Data: 10 48  returns 0x00 (0002ms, 1194ms total)
T1E8C 022:481 JLINK_ReadMem (0x0040096C, 0x003C Bytes, ...) -- CPU_ReadMem(64 bytes @ 0x00400980) -- Updating C cache (64 bytes @ 0x00400980) -- Read from C cache (60 bytes @ 0x0040096C) - Data: 00 7B 81 28 0A D1 11 A0 FF F7 3C FC 00 20 FF F7 ...  returns 0x00 (0003ms, 1197ms total)
T1B5C 024:290 JLINK_Step() -- Read from C cache (2 bytes @ 0x0040096A) -- Read from C cache (4 bytes @ 0x004009AC) -- Simulated  returns 0x00 (0003ms, 1200ms total)
T1B5C 024:293 JLINK_ReadReg(R15 (PC))  returns 0x0040096C (0000ms, 1200ms total)
T1B5C 024:293 JLINK_ReadReg(XPSR)  returns 0x61000036 (0000ms, 1200ms total)
T1B5C 024:293 JLINK_Step() -- Read from C cache (2 bytes @ 0x0040096C) -- CPU_ReadMem(64 bytes @ 0x20400040) -- Updating C cache (64 bytes @ 0x20400040) -- Read from C cache (1 bytes @ 0x20400070) -- Simulated  returns 0x00 (0002ms, 1202ms total)
T1B5C 024:295 JLINK_ReadReg(R15 (PC))  returns 0x0040096E (0000ms, 1202ms total)
T1B5C 024:295 JLINK_ReadReg(XPSR)  returns 0x61000036 (0000ms, 1202ms total)
T1B5C 024:295 JLINK_Step() -- Read from C cache (2 bytes @ 0x0040096E) -- Simulated  returns 0x00 (0000ms, 1202ms total)
T1B5C 024:295 JLINK_ReadReg(R15 (PC))  returns 0x00400970 (0000ms, 1202ms total)
T1B5C 024:295 JLINK_ReadReg(XPSR)  returns 0x61000036 (0000ms, 1202ms total)
T1B5C 024:295 JLINK_Step() -- Read from C cache (2 bytes @ 0x00400970) -- Simulated  returns 0x00 (0000ms, 1202ms total)
T1B5C 024:295 JLINK_ReadReg(R15 (PC))  returns 0x00400972 (0000ms, 1202ms total)
T1B5C 024:295 JLINK_ReadReg(XPSR)  returns 0x61000036 (0000ms, 1202ms total)
T1B5C 024:295 JLINK_ReadReg(R0)  returns 0x00000081 (0000ms, 1202ms total)
T1B5C 024:296 JLINK_ReadReg(R1)  returns 0x20400050 (0000ms, 1202ms total)
T1B5C 024:296 JLINK_ReadReg(R2)  returns 0x004009B8 (0000ms, 1202ms total)
T1B5C 024:296 JLINK_ReadReg(R3)  returns 0x00000000 (0000ms, 1202ms total)
